{
    "alias": "default",
    "port": "ttyUSB2",
    "bitrate": "9600",
    "databits": "8",
    "parity": "None",
    "stopbits": "1",
    "flowcontrol": "None",
    "mode": "Hex",
    "suspend_timeout": 8,
    "ext_program": "bash -i",
    "newline": "LF",
    "win_x": 1449,
    "win_y": 1059,
    "sync_string": "0x01 0x04",
    "columns": 30,
    "plugin": "None",
    "macros": [
        {
            "name": "M1",
            "hex": true,
            "text": "01 01 00 00 00 02 BD CB"
        },
        {
            "name": "M2",
            "hex": true,
            "text": ""
        },
        {
            "name": "M3",
            "hex": true,
            "text": "01 03 00 00 00 02 C4 0B"
        },
        {
            "name": "M4",
            "hex": true,
            "text": "01 03 00 00 00 10 44 06"
        },
        {
            "name": "M5",
            "hex": true,
            "text": "01 04 00 00 00 10 F1 C6"
        },
        {
            "name": "M6",
            "hex": true,
            "text": "01 04 00 02 00 0A D1 CD"
        },
        {
            "name": "M7",
            "hex": true,
            "text": "01 04 00 00 00 0A 70 0D"
        },
        {
            "name": "M8",
            "hex": false,
            "text": ""
        },
        {
            "name": "M9",
            "hex": false,
            "text": ""
        },
        {
            "name": "M10",
            "hex": false,
            "text": ""
        }
    ]
}